T9368 000:008.758   SEGGER J-Link V7.52b Log File
T9368 000:008.948   DLL Compiled: Aug  3 2021 16:53:06
T9368 000:008.957   Logging started @ 2026-03-28 06:57
T9368 000:008.964 - 8.968ms
T9368 000:008.982 JLINK_SetWarnOutHandler(...)
T9368 000:008.994 - 0.015ms
T9368 000:009.004 JLINK_OpenEx(...)
T9368 000:011.742   Firmware: J-Link V9 compiled Dec  8 2023 20:16:22
T9368 000:012.453   Firmware: J-Link V9 compiled Dec  8 2023 20:16:22
T9368 000:012.694   Decompressing FW timestamp took 186 us
T9368 000:021.743   Hardware: V9.70
T9368 000:021.802   S/N: 602718497
T9368 000:021.815   OEM: SEGGER
T9368 000:021.826   Feature(s): GDB, RDI, FlashBP, FlashDL, JFlash
T9368 000:024.230   TELNET listener socket opened on port 19021
T9368 000:024.463   WEBSRV Starting webserver
T9368 000:024.735   WEBSRV Webserver running on local port 19080
T9368 000:056.438 - 47.456ms returns "O.K."
T9368 000:056.490 JLINK_GetEmuCaps()
T9368 000:056.500 - 0.014ms returns 0xB9FF7BBF
T9368 000:056.516 JLINK_TIF_GetAvailable(...)
T9368 000:056.997 - 0.496ms
T9368 000:057.030 JLINK_SetErrorOutHandler(...)
T9368 000:057.044 - 0.020ms
T9368 000:057.112 JLINK_ExecCommand("ProjectFile = "C:\Git_Program\AM32_LK_ESC\Keil_Projects\JLinkSettings.ini"", ...). 
T9368 000:069.337   Ref file found at: C:\KEIL_V5\ARM\Segger\JLinkDevices.ref
T9368 000:069.513   XML referenced by ref file: C:\Program Files\SEGGER\JLink\JLinkDevices.xml
T9368 000:070.414   C:\Program Files\SEGGER\JLink\JLinkDevices.xml evaluated successfully.
T9368 000:133.832   Device "CORTEX-M0" selected.
T9368 000:134.263 - 77.161ms returns 0x00
T9368 000:139.173 JLINK_ExecCommand("Device = LKS32MC071CBT8", ...). 
T9368 000:144.232   Device "CORTEX-M0" selected.
T9368 000:144.659 - 5.463ms returns 0x00
T9368 000:144.680 JLINK_ExecCommand("DisableConnectionTimeout", ...). 
T9368 000:144.693 - 0.006ms returns 0x01
T9368 000:144.703 JLINK_GetHardwareVersion()
T9368 000:144.711 - 0.012ms returns 97000
T9368 000:144.729 JLINK_GetDLLVersion()
T9368 000:144.737 - 0.011ms returns 75202
T9368 000:144.746 JLINK_GetOEMString(...)
T9368 000:144.756 JLINK_GetFirmwareString(...)
T9368 000:144.764 - 0.012ms
T9368 000:158.716 JLINK_GetDLLVersion()
T9368 000:158.742 - 0.030ms returns 75202
T9368 000:158.753 JLINK_GetCompileDateTime()
T9368 000:158.761 - 0.012ms
T9368 000:163.464 JLINK_GetFirmwareString(...)
T9368 000:163.488 - 0.028ms
T9368 000:167.911 JLINK_GetHardwareVersion()
T9368 000:167.935 - 0.028ms returns 97000
T9368 000:172.463 JLINK_GetSN()
T9368 000:172.489 - 0.030ms returns 602718497
T9368 000:177.848 JLINK_GetOEMString(...)
T9368 000:189.271 JLINK_TIF_Select(JLINKARM_TIF_SWD)
T9368 000:191.245 - 1.991ms returns 0x00
T9368 000:191.272 JLINK_HasError()
T9368 000:191.309 JLINK_SetSpeed(5000)
T9368 000:191.642 - 0.348ms
T9368 000:191.667 JLINK_GetId()
T9368 000:200.328   Found SW-DP with ID 0x0BB11477
T9368 000:210.273   DPIDR: 0x0BB11477
T9368 000:214.932   Scanning AP map to find all available APs
T9368 000:221.483   AP[1]: Stopped AP scan as end of AP map has been reached
T9368 000:226.155   AP[0]: AHB-AP (IDR: 0x04770021)
T9368 000:230.885   Iterating through AP map to find AHB-AP to use
T9368 000:237.118   AP[0]: Core found
T9368 000:241.584   AP[0]: AHB-AP ROM base: 0xE00FF000
T9368 000:247.297   CPUID register: 0x410CC200. Implementer code: 0x41 (ARM)
T9368 000:252.150   Found Cortex-M0 r0p0, Little endian.
T9368 000:353.813   -- Max. mem block: 0x00010C20
T9368 000:354.289   CPU_ReadMem(4 bytes @ 0xE000EDF0)
T9368 000:354.829   CPU_WriteMem(4 bytes @ 0xE000EDF0)
T9368 000:355.439   CPU_ReadMem(4 bytes @ 0xE0002000)
T9368 000:363.825   FPUnit: 2 code (BP) slots and 0 literal slots
T9368 000:363.861   CPU_ReadMem(4 bytes @ 0xE000EDFC)
T9368 000:364.540   CPU_WriteMem(4 bytes @ 0xE000EDFC)
T9368 000:365.112   CPU_ReadMem(4 bytes @ 0xE0001000)
T9368 000:365.785   CPU_WriteMem(4 bytes @ 0xE0001000)
T9368 000:373.580   CoreSight components:
T9368 000:381.638   ROMTbl[0] @ E00FF000
T9368 000:381.675   CPU_ReadMem(64 bytes @ 0xE00FF000)
T9368 000:382.566   CPU_ReadMem(32 bytes @ 0xE000EFE0)
T9368 000:392.523   ROMTbl[0][0]: E000E000, CID: B105E00D, PID: 000BB008 SCS
T9368 000:392.565   CPU_ReadMem(32 bytes @ 0xE0001FE0)
T9368 000:402.321   ROMTbl[0][1]: E0001000, CID: B105E00D, PID: 000BB00A DWT
T9368 000:402.362   CPU_ReadMem(32 bytes @ 0xE0002FE0)
T9368 000:409.729   ROMTbl[0][2]: E0002000, CID: B105E00D, PID: 000BB00B FPB
T9368 000:410.365 - 218.713ms returns 0x0BB11477
T9368 000:410.478 JLINK_GetDLLVersion()
T9368 000:410.498 - 0.023ms returns 75202
T9368 000:410.508 JLINK_CORE_GetFound()
T9368 000:410.516 - 0.011ms returns 0x60000FF
T9368 000:410.526 JLINK_GetDebugInfo(0x100 = JLINKARM_ROM_TABLE_ADDR_INDEX)
T9368 000:410.535   Value=0xE00FF000
T9368 000:410.546 - 0.024ms returns 0
T9368 000:418.559 JLINK_GetDebugInfo(0x100 = JLINKARM_ROM_TABLE_ADDR_INDEX)
T9368 000:418.588   Value=0xE00FF000
T9368 000:418.600 - 0.045ms returns 0
T9368 000:418.611 JLINK_GetDebugInfo(0x101 = JLINKARM_DEBUG_INFO_ETM_ADDR_INDEX)
T9368 000:418.619   Value=0x00000000
T9368 000:418.630 - 0.023ms returns 0
T9368 000:418.658 JLINK_ReadMemEx(0xE0041FF0, 0x10 Bytes, Flags = 0x02000004)
T9368 000:418.702   CPU_ReadMem(16 bytes @ 0xE0041FF0)
T9368 000:419.319   Data:  00 00 00 00 00 00 00 00 00 00 00 00 00 00 00 00
T9368 000:419.342 - 0.687ms returns 16 (0x10)
T9368 000:419.354 JLINK_GetDebugInfo(0x102 = JLINKARM_DEBUG_INFO_MTB_ADDR_INDEX)
T9368 000:419.363   Value=0x00000000
T9368 000:419.375 - 0.024ms returns 0
T9368 000:419.385 JLINK_GetDebugInfo(0x103 = JLINKARM_DEBUG_INFO_TPIU_ADDR_INDEX)
T9368 000:419.393   Value=0x00000000
T9368 000:419.404 - 0.023ms returns 0
T9368 000:419.413 JLINK_GetDebugInfo(0x104 = JLINKARM_DEBUG_INFO_ITM_ADDR_INDEX)
T9368 000:419.421   Value=0xE0000000
T9368 000:419.432 - 0.022ms returns 0
T9368 000:419.441 JLINK_GetDebugInfo(0x105 = JLINKARM_DEBUG_INFO_DWT_ADDR_INDEX)
T9368 000:419.448   Value=0xE0001000
T9368 000:419.459 - 0.022ms returns 0
T9368 000:419.468 JLINK_GetDebugInfo(0x106 = JLINKARM_DEBUG_INFO_FPB_ADDR_INDEX)
T9368 000:419.476   Value=0xE0002000
T9368 000:419.488 - 0.022ms returns 0
T9368 000:419.497 JLINK_GetDebugInfo(0x107 = JLINKARM_DEBUG_INFO_NVIC_ADDR_INDEX)
T9368 000:419.504   Value=0xE000E000
T9368 000:419.515 - 0.022ms returns 0
T9368 000:419.524 JLINK_GetDebugInfo(0x10C = JLINKARM_DEBUG_INFO_DBG_ADDR_INDEX)
T9368 000:419.532   Value=0xE000EDF0
T9368 000:419.543 - 0.022ms returns 0
T9368 000:419.552 JLINK_GetDebugInfo(0x01 = Unknown)
T9368 000:419.560   Value=0x00000000
T9368 000:419.571 - 0.022ms returns 0
T9368 000:419.580 JLINK_ReadMemU32(0xE000ED00, 0x1 Items)
T9368 000:419.594   CPU_ReadMem(4 bytes @ 0xE000ED00)
T9368 000:420.585   Data:  00 C2 0C 41
T9368 000:420.617   Debug reg: CPUID
T9368 000:420.633 - 1.059ms returns 1 (0x1)
T9368 000:420.655 JLINK_GetDebugInfo(0x10F = JLINKARM_DEBUG_INFO_HAS_CORTEX_M_SECURITY_EXT_INDEX)
T9368 000:420.669   Value=0x00000000
T9368 000:420.684 - 0.034ms returns 0
T9368 000:420.698 JLINK_HasError()
T9368 000:420.712 JLINK_SetResetType(JLINKARM_CM3_RESET_TYPE_NORMAL)
T9368 000:420.723 - 0.017ms returns JLINKARM_CM3_RESET_TYPE_NORMAL
T9368 000:420.737 JLINK_Reset()
T9368 000:420.795   CPU is running
T9368 000:420.817   CPU_WriteMem(4 bytes @ 0xE000EDF0)
T9368 000:421.459   CPU is running
T9368 000:421.482   CPU_WriteMem(4 bytes @ 0xE000EDFC)
T9368 000:429.340   Reset: Halt core after reset via DEMCR.VC_CORERESET.
T9368 000:437.335   Reset: Reset device via AIRCR.SYSRESETREQ.
T9368 000:437.372   CPU is running
T9368 000:437.388   CPU_WriteMem(4 bytes @ 0xE000ED0C)
T9368 000:491.096   CPU_ReadMem(4 bytes @ 0xE000EDF0)
T9368 000:491.789   CPU_ReadMem(4 bytes @ 0xE000EDF0)
T9368 000:492.375   CPU is running
T9368 000:492.399   CPU_WriteMem(4 bytes @ 0xE000EDF0)
T9368 000:493.021   CPU is running
T9368 000:493.060   CPU_WriteMem(4 bytes @ 0xE000EDFC)
T9368 000:499.145   CPU_ReadMem(4 bytes @ 0xE000EDF0)
T9368 000:502.036   CPU_WriteMem(4 bytes @ 0xE0002000)
T9368 000:502.597   CPU_ReadMem(4 bytes @ 0xE000EDFC)
T9368 000:503.244   CPU_ReadMem(4 bytes @ 0xE0001000)
T9368 000:503.824   CPU_WriteMem(4 bytes @ 0xE0001000)
T9368 000:504.463 - 83.740ms
T9368 000:504.579 JLINK_Halt()
T9368 000:504.599 - 0.024ms returns 0x00
T9368 000:504.610 JLINK_ReadMemU32(0xE000EDF0, 0x1 Items)
T9368 000:504.626   CPU_ReadMem(4 bytes @ 0xE000EDF0)
T9368 000:505.355   Data:  03 00 03 00
T9368 000:505.386   Debug reg: DHCSR
T9368 000:505.404 - 0.800ms returns 1 (0x1)
T9368 000:505.438 JLINK_WriteU32_64(0xE000EDF0, 0xA05F0003)
T9368 000:505.455   Debug reg: DHCSR
T9368 000:505.789   CPU_WriteMem(4 bytes @ 0xE000EDF0)
T9368 000:506.446 - 1.022ms returns 0 (0x00000000)
T9368 000:506.469 JLINK_WriteU32_64(0xE000EDFC, 0x01000000)
T9368 000:506.479   Debug reg: DEMCR
T9368 000:506.497   CPU_WriteMem(4 bytes @ 0xE000EDFC)
T9368 000:507.105 - 0.649ms returns 0 (0x00000000)
T9368 000:527.769 JLINK_GetHWStatus(...)
T9368 000:528.345 - 0.590ms returns 0
T9368 000:542.975 JLINK_GetNumBPUnits(Type = 0xFFFFFF00)
T9368 000:543.009 - 0.039ms returns 0x02
T9368 000:543.020 JLINK_GetNumBPUnits(Type = 0xF0)
T9368 000:543.028 - 0.011ms returns 0x2000
T9368 000:543.037 JLINK_GetNumWPUnits()
T9368 000:543.045 - 0.011ms returns 2
T9368 000:559.489 JLINK_GetSpeed()
T9368 000:559.516 - 0.032ms returns 4000
T9368 000:570.437 JLINK_ReadMemU32(0xE000E004, 0x1 Items)
T9368 000:570.482   CPU_ReadMem(4 bytes @ 0xE000E004)
T9368 000:571.023   Data:  00 00 00 00
T9368 000:571.046 - 0.613ms returns 1 (0x1)
T9368 000:571.063 JLINK_Halt()
T9368 000:571.071 - 0.012ms returns 0x00
T9368 000:571.081 JLINK_IsHalted()
T9368 000:571.090 - 0.012ms returns TRUE
T9368 000:585.228 JLINK_WriteMem(0x20000000, 0x19C Bytes, ...)
T9368 000:585.248   Data:  00 BE 0A E0 0D 78 2D 06 68 40 08 24 40 00 00 D3 ...
T9368 000:585.553   CPU_WriteMem(412 bytes @ 0x20000000)
T9368 000:587.576 - 2.362ms returns 0x19C
T9368 000:587.631 JLINK_HasError()
T9368 000:587.645 JLINK_WriteReg(R0, 0x00000000)
T9368 000:587.658 - 0.017ms returns 0
T9368 000:587.669 JLINK_WriteReg(R1, 0x00B71B00)
T9368 000:587.677 - 0.012ms returns 0
T9368 000:587.687 JLINK_WriteReg(R2, 0x00000001)
T9368 000:587.696 - 0.012ms returns 0
T9368 000:587.705 JLINK_WriteReg(R3, 0x00000000)
T9368 000:587.714 - 0.012ms returns 0
T9368 000:587.724 JLINK_WriteReg(R4, 0x00000000)
T9368 000:587.733 - 0.012ms returns 0
T9368 000:587.742 JLINK_WriteReg(R5, 0x00000000)
T9368 000:587.750 - 0.012ms returns 0
T9368 000:587.760 JLINK_WriteReg(R6, 0x00000000)
T9368 000:587.769 - 0.012ms returns 0
T9368 000:587.778 JLINK_WriteReg(R7, 0x00000000)
T9368 000:587.787 - 0.012ms returns 0
T9368 000:587.796 JLINK_WriteReg(R8, 0x00000000)
T9368 000:587.822 - 0.029ms returns 0
T9368 000:587.832 JLINK_WriteReg(R9, 0x20000198)
T9368 000:587.842 - 0.015ms returns 0
T9368 000:587.853 JLINK_WriteReg(R10, 0x00000000)
T9368 000:587.861 - 0.012ms returns 0
T9368 000:587.871 JLINK_WriteReg(R11, 0x00000000)
T9368 000:587.879 - 0.012ms returns 0
T9368 000:587.889 JLINK_WriteReg(R12, 0x00000000)
T9368 000:587.898 - 0.012ms returns 0
T9368 000:587.907 JLINK_WriteReg(R13 (SP), 0x20001000)
T9368 000:587.917 - 0.013ms returns 0
T9368 000:587.926 JLINK_WriteReg(R14, 0x20000001)
T9368 000:587.935 - 0.012ms returns 0
T9368 000:587.944 JLINK_WriteReg(R15 (PC), 0x20000040)
T9368 000:587.959 - 0.019ms returns 0
T9368 000:587.969 JLINK_WriteReg(XPSR, 0x01000000)
T9368 000:587.978 - 0.012ms returns 0
T9368 000:587.988 JLINK_WriteReg(MSP, 0x20001000)
T9368 000:587.996 - 0.012ms returns 0
T9368 000:588.006 JLINK_WriteReg(PSP, 0x20001000)
T9368 000:588.014 - 0.012ms returns 0
T9368 000:588.024 JLINK_WriteReg(CFBP, 0x00000000)
T9368 000:588.032 - 0.012ms returns 0
T9368 000:588.042 JLINK_SetBPEx(Addr = 0x20000000, Type = 0xFFFFFFF2)
T9368 000:588.055   CPU_ReadMem(4 bytes @ 0x20000000)
T9368 000:588.622   CPU_WriteMem(4 bytes @ 0x20000000)
T9368 000:589.224   CPU_ReadMem(4 bytes @ 0x20000000)
T9368 000:590.066   CPU_WriteMem(4 bytes @ 0x20000000)
T9368 000:590.678   CPU_ReadMem(2 bytes @ 0x20000000)
T9368 000:591.290 - 3.267ms returns 0x00000001
T9368 000:591.322 JLINK_Go()
T9368 000:591.344   CPU_WriteMem(2 bytes @ 0x20000000)
T9368 000:592.027   CPU_ReadMem(4 bytes @ 0xE0001000)
T9368 000:592.618   CPU_WriteMem(4 bytes @ 0xE0001000)
T9368 000:592.641   CPU_WriteMem(4 bytes @ 0xE0002008)
T9368 000:592.653   CPU_WriteMem(4 bytes @ 0xE000200C)
T9368 000:593.545   CPU_WriteMem(4 bytes @ 0xE0001004)
T9368 000:596.542 - 5.234ms
T9368 000:596.567 JLINK_IsHalted()
T9368 000:598.981   CPU_ReadMem(2 bytes @ 0x20000000)
T9368 000:599.472 - 2.918ms returns TRUE
T9368 000:599.496 JLINK_ReadReg(R15 (PC))
T9368 000:599.508 - 0.016ms returns 0x20000000
T9368 000:599.519 JLINK_ClrBPEx(BPHandle = 0x00000001)
T9368 000:599.528 - 0.013ms returns 0x00
T9368 000:599.538 JLINK_ReadReg(R0)
T9368 000:599.547 - 0.012ms returns 0x00000000
T9368 000:599.983 JLINK_HasError()
T9368 000:600.002 JLINK_WriteReg(R0, 0x00000000)
T9368 000:600.014 - 0.016ms returns 0
T9368 000:600.024 JLINK_WriteReg(R1, 0x00000200)
T9368 000:600.033 - 0.012ms returns 0
T9368 000:600.043 JLINK_WriteReg(R2, 0x000000FF)
T9368 000:600.052 - 0.012ms returns 0
T9368 000:600.061 JLINK_WriteReg(R3, 0x00000000)
T9368 000:600.070 - 0.012ms returns 0
T9368 000:600.080 JLINK_WriteReg(R4, 0x00000000)
T9368 000:600.089 - 0.012ms returns 0
T9368 000:600.098 JLINK_WriteReg(R5, 0x00000000)
T9368 000:600.107 - 0.012ms returns 0
T9368 000:600.116 JLINK_WriteReg(R6, 0x00000000)
T9368 000:600.125 - 0.012ms returns 0
T9368 000:600.135 JLINK_WriteReg(R7, 0x00000000)
T9368 000:600.143 - 0.012ms returns 0
T9368 000:600.153 JLINK_WriteReg(R8, 0x00000000)
T9368 000:600.161 - 0.012ms returns 0
T9368 000:600.171 JLINK_WriteReg(R9, 0x20000198)
T9368 000:600.179 - 0.012ms returns 0
T9368 000:600.189 JLINK_WriteReg(R10, 0x00000000)
T9368 000:600.197 - 0.012ms returns 0
T9368 000:600.207 JLINK_WriteReg(R11, 0x00000000)
T9368 000:600.215 - 0.012ms returns 0
T9368 000:600.225 JLINK_WriteReg(R12, 0x00000000)
T9368 000:600.233 - 0.012ms returns 0
T9368 000:600.243 JLINK_WriteReg(R13 (SP), 0x20001000)
T9368 000:600.252 - 0.013ms returns 0
T9368 000:600.262 JLINK_WriteReg(R14, 0x20000001)
T9368 000:600.270 - 0.012ms returns 0
T9368 000:600.280 JLINK_WriteReg(R15 (PC), 0x20000020)
T9368 000:600.289 - 0.012ms returns 0
T9368 000:600.298 JLINK_WriteReg(XPSR, 0x01000000)
T9368 000:600.307 - 0.012ms returns 0
T9368 000:600.317 JLINK_WriteReg(MSP, 0x20001000)
T9368 000:600.325 - 0.012ms returns 0
T9368 000:600.335 JLINK_WriteReg(PSP, 0x20001000)
T9368 000:600.343 - 0.012ms returns 0
T9368 000:600.353 JLINK_WriteReg(CFBP, 0x00000000)
T9368 000:600.361 - 0.012ms returns 0
T9368 000:600.371 JLINK_SetBPEx(Addr = 0x20000000, Type = 0xFFFFFFF2)
T9368 000:600.381 - 0.014ms returns 0x00000002
T9368 000:600.391 JLINK_Go()
T9368 000:600.406   CPU_ReadMem(4 bytes @ 0xE0001000)
T9368 000:600.982   CPU_WriteMem(4 bytes @ 0xE0001000)
T9368 000:604.129 - 3.759ms
T9368 000:604.160 JLINK_IsHalted()
T9368 000:606.577   CPU_ReadMem(2 bytes @ 0x20000000)
T9368 000:607.074 - 2.927ms returns TRUE
T9368 000:607.182 JLINK_ReadReg(R15 (PC))
T9368 000:607.205 - 0.028ms returns 0x20000000
T9368 000:607.217 JLINK_ClrBPEx(BPHandle = 0x00000002)
T9368 000:607.226 - 0.013ms returns 0x00
T9368 000:607.236 JLINK_ReadReg(R0)
T9368 000:607.245 - 0.012ms returns 0x00000001
T9368 000:607.256 JLINK_HasError()
T9368 000:607.266 JLINK_WriteReg(R0, 0x00000000)
T9368 000:607.276 - 0.013ms returns 0
T9368 000:607.286 JLINK_WriteReg(R1, 0x00000200)
T9368 000:607.294 - 0.012ms returns 0
T9368 000:607.304 JLINK_WriteReg(R2, 0x000000FF)
T9368 000:607.312 - 0.012ms returns 0
T9368 000:607.322 JLINK_WriteReg(R3, 0x00000000)
T9368 000:607.330 - 0.012ms returns 0
T9368 000:607.339 JLINK_WriteReg(R4, 0x00000000)
T9368 000:607.348 - 0.012ms returns 0
T9368 000:607.358 JLINK_WriteReg(R5, 0x00000000)
T9368 000:607.366 - 0.012ms returns 0
T9368 000:607.375 JLINK_WriteReg(R6, 0x00000000)
T9368 000:607.384 - 0.012ms returns 0
T9368 000:607.393 JLINK_WriteReg(R7, 0x00000000)
T9368 000:607.402 - 0.063ms returns 0
T9368 000:607.469 JLINK_WriteReg(R8, 0x00000000)
T9368 000:607.479 - 0.014ms returns 0
T9368 000:607.488 JLINK_WriteReg(R9, 0x20000198)
T9368 000:607.497 - 0.012ms returns 0
T9368 000:607.506 JLINK_WriteReg(R10, 0x00000000)
T9368 000:607.515 - 0.012ms returns 0
T9368 000:607.524 JLINK_WriteReg(R11, 0x00000000)
T9368 000:607.533 - 0.012ms returns 0
T9368 000:607.542 JLINK_WriteReg(R12, 0x00000000)
T9368 000:607.550 - 0.012ms returns 0
T9368 000:607.560 JLINK_WriteReg(R13 (SP), 0x20001000)
T9368 000:607.569 - 0.012ms returns 0
T9368 000:607.578 JLINK_WriteReg(R14, 0x20000001)
T9368 000:607.587 - 0.012ms returns 0
T9368 000:607.596 JLINK_WriteReg(R15 (PC), 0x200000B0)
T9368 000:607.604 - 0.012ms returns 0
T9368 000:607.614 JLINK_WriteReg(XPSR, 0x01000000)
T9368 000:607.622 - 0.012ms returns 0
T9368 000:607.632 JLINK_WriteReg(MSP, 0x20001000)
T9368 000:607.640 - 0.012ms returns 0
T9368 000:607.650 JLINK_WriteReg(PSP, 0x20001000)
T9368 000:607.658 - 0.012ms returns 0
T9368 000:607.667 JLINK_WriteReg(CFBP, 0x00000000)
T9368 000:607.676 - 0.012ms returns 0
T9368 000:607.685 JLINK_SetBPEx(Addr = 0x20000000, Type = 0xFFFFFFF2)
T9368 000:607.695 - 0.013ms returns 0x00000003
T9368 000:607.704 JLINK_Go()
T9368 000:607.718   CPU_ReadMem(4 bytes @ 0xE0001000)
T9368 000:608.399   CPU_WriteMem(4 bytes @ 0xE0001000)
T9368 000:611.605 - 3.926ms
T9368 000:611.646 JLINK_IsHalted()
T9368 000:614.264 - 2.640ms returns FALSE
T9368 000:614.301 JLINK_HasError()
T9368 000:634.685 JLINK_IsHalted()
T9368 000:637.157   CPU_ReadMem(2 bytes @ 0x20000000)
T9368 000:637.656 - 2.983ms returns TRUE
T9368 000:637.677 JLINK_ReadReg(R15 (PC))
T9368 000:637.689 - 0.016ms returns 0x20000000
T9368 000:637.699 JLINK_ClrBPEx(BPHandle = 0x00000003)
T9368 000:637.709 - 0.013ms returns 0x00
T9368 000:637.719 JLINK_ReadReg(R0)
T9368 000:637.727 - 0.012ms returns 0x00000000
T9368 000:639.061 JLINK_HasError()
T9368 000:639.088 JLINK_WriteReg(R0, 0x00000200)
T9368 000:639.101 - 0.016ms returns 0
T9368 000:639.111 JLINK_WriteReg(R1, 0x00000200)
T9368 000:639.121 - 0.014ms returns 0
T9368 000:639.131 JLINK_WriteReg(R2, 0x000000FF)
T9368 000:639.140 - 0.012ms returns 0
T9368 000:639.149 JLINK_WriteReg(R3, 0x00000000)
T9368 000:639.158 - 0.012ms returns 0
T9368 000:639.167 JLINK_WriteReg(R4, 0x00000000)
T9368 000:639.176 - 0.013ms returns 0
T9368 000:639.186 JLINK_WriteReg(R5, 0x00000000)
T9368 000:639.194 - 0.012ms returns 0
T9368 000:639.204 JLINK_WriteReg(R6, 0x00000000)
T9368 000:639.212 - 0.012ms returns 0
T9368 000:639.222 JLINK_WriteReg(R7, 0x00000000)
T9368 000:639.230 - 0.012ms returns 0
T9368 000:639.240 JLINK_WriteReg(R8, 0x00000000)
T9368 000:639.248 - 0.012ms returns 0
T9368 000:639.257 JLINK_WriteReg(R9, 0x20000198)
T9368 000:639.266 - 0.012ms returns 0
T9368 000:639.276 JLINK_WriteReg(R10, 0x00000000)
T9368 000:639.284 - 0.012ms returns 0
T9368 000:639.294 JLINK_WriteReg(R11, 0x00000000)
T9368 000:639.302 - 0.012ms returns 0
T9368 000:639.312 JLINK_WriteReg(R12, 0x00000000)
T9368 000:639.320 - 0.012ms returns 0
T9368 000:639.330 JLINK_WriteReg(R13 (SP), 0x20001000)
T9368 000:639.339 - 0.013ms returns 0
T9368 000:639.349 JLINK_WriteReg(R14, 0x20000001)
T9368 000:639.358 - 0.012ms returns 0
T9368 000:639.367 JLINK_WriteReg(R15 (PC), 0x20000020)
T9368 000:639.376 - 0.012ms returns 0
T9368 000:639.385 JLINK_WriteReg(XPSR, 0x01000000)
T9368 000:639.394 - 0.012ms returns 0
T9368 000:639.403 JLINK_WriteReg(MSP, 0x20001000)
T9368 000:639.412 - 0.012ms returns 0
T9368 000:639.422 JLINK_WriteReg(PSP, 0x20001000)
T9368 000:639.430 - 0.012ms returns 0
T9368 000:639.439 JLINK_WriteReg(CFBP, 0x00000000)
T9368 000:639.448 - 0.012ms returns 0
T9368 000:639.458 JLINK_SetBPEx(Addr = 0x20000000, Type = 0xFFFFFFF2)
T9368 000:639.467 - 0.014ms returns 0x00000004
T9368 000:639.478 JLINK_Go()
T9368 000:639.494   CPU_ReadMem(4 bytes @ 0xE0001000)
T9368 000:640.073   CPU_WriteMem(4 bytes @ 0xE0001000)
T9368 000:643.138 - 3.674ms
T9368 000:643.162 JLINK_IsHalted()
T9368 000:645.680   CPU_ReadMem(2 bytes @ 0x20000000)
T9368 000:646.365 - 3.218ms returns TRUE
T9368 000:646.391 JLINK_ReadReg(R15 (PC))
T9368 000:646.404 - 0.017ms returns 0x20000000
T9368 000:646.414 JLINK_ClrBPEx(BPHandle = 0x00000004)
T9368 000:646.423 - 0.013ms returns 0x00
T9368 000:646.433 JLINK_ReadReg(R0)
T9368 000:646.441 - 0.013ms returns 0x00000001
T9368 000:646.453 JLINK_HasError()
T9368 000:646.463 JLINK_WriteReg(R0, 0x00000200)
T9368 000:646.473 - 0.013ms returns 0
T9368 000:646.482 JLINK_WriteReg(R1, 0x00000200)
T9368 000:646.490 - 0.012ms returns 0
T9368 000:646.500 JLINK_WriteReg(R2, 0x000000FF)
T9368 000:646.508 - 0.012ms returns 0
T9368 000:646.517 JLINK_WriteReg(R3, 0x00000000)
T9368 000:646.526 - 0.012ms returns 0
T9368 000:646.535 JLINK_WriteReg(R4, 0x00000000)
T9368 000:646.543 - 0.012ms returns 0
T9368 000:646.553 JLINK_WriteReg(R5, 0x00000000)
T9368 000:646.561 - 0.012ms returns 0
T9368 000:646.570 JLINK_WriteReg(R6, 0x00000000)
T9368 000:646.578 - 0.012ms returns 0
T9368 000:646.588 JLINK_WriteReg(R7, 0x00000000)
T9368 000:646.596 - 0.012ms returns 0
T9368 000:646.605 JLINK_WriteReg(R8, 0x00000000)
T9368 000:646.614 - 0.012ms returns 0
T9368 000:646.623 JLINK_WriteReg(R9, 0x20000198)
T9368 000:646.631 - 0.012ms returns 0
T9368 000:646.641 JLINK_WriteReg(R10, 0x00000000)
T9368 000:646.649 - 0.012ms returns 0
T9368 000:646.658 JLINK_WriteReg(R11, 0x00000000)
T9368 000:646.666 - 0.012ms returns 0
T9368 000:646.676 JLINK_WriteReg(R12, 0x00000000)
T9368 000:646.685 - 0.012ms returns 0
T9368 000:646.694 JLINK_WriteReg(R13 (SP), 0x20001000)
T9368 000:646.702 - 0.012ms returns 0
T9368 000:646.712 JLINK_WriteReg(R14, 0x20000001)
T9368 000:646.720 - 0.012ms returns 0
T9368 000:646.729 JLINK_WriteReg(R15 (PC), 0x200000B0)
T9368 000:646.738 - 0.012ms returns 0
T9368 000:646.747 JLINK_WriteReg(XPSR, 0x01000000)
T9368 000:646.755 - 0.012ms returns 0
T9368 000:646.765 JLINK_WriteReg(MSP, 0x20001000)
T9368 000:646.773 - 0.012ms returns 0
T9368 000:646.782 JLINK_WriteReg(PSP, 0x20001000)
T9368 000:646.791 - 0.012ms returns 0
T9368 000:646.800 JLINK_WriteReg(CFBP, 0x00000000)
T9368 000:646.808 - 0.012ms returns 0
T9368 000:646.818 JLINK_SetBPEx(Addr = 0x20000000, Type = 0xFFFFFFF2)
T9368 000:646.827 - 0.013ms returns 0x00000005
T9368 000:646.837 JLINK_Go()
T9368 000:646.850   CPU_ReadMem(4 bytes @ 0xE0001000)
T9368 000:647.373   CPU_WriteMem(4 bytes @ 0xE0001000)
T9368 000:650.524 - 3.705ms
T9368 000:650.553 JLINK_IsHalted()
T9368 000:652.869 - 2.330ms returns FALSE
T9368 000:652.893 JLINK_HasError()
T9368 000:660.325 JLINK_IsHalted()
T9368 000:662.859   CPU_ReadMem(2 bytes @ 0x20000000)
T9368 000:663.508 - 3.197ms returns TRUE
T9368 000:663.533 JLINK_ReadReg(R15 (PC))
T9368 000:663.546 - 0.017ms returns 0x20000000
T9368 000:663.557 JLINK_ClrBPEx(BPHandle = 0x00000005)
T9368 000:663.566 - 0.013ms returns 0x00
T9368 000:663.576 JLINK_ReadReg(R0)
T9368 000:663.584 - 0.012ms returns 0x00000000
T9368 000:664.244 JLINK_HasError()
T9368 000:664.263 JLINK_WriteReg(R0, 0x00000400)
T9368 000:664.274 - 0.015ms returns 0
T9368 000:664.284 JLINK_WriteReg(R1, 0x00000200)
T9368 000:664.292 - 0.012ms returns 0
T9368 000:664.302 JLINK_WriteReg(R2, 0x000000FF)
T9368 000:664.310 - 0.012ms returns 0
T9368 000:664.320 JLINK_WriteReg(R3, 0x00000000)
T9368 000:664.328 - 0.012ms returns 0
T9368 000:664.338 JLINK_WriteReg(R4, 0x00000000)
T9368 000:664.347 - 0.013ms returns 0
T9368 000:664.357 JLINK_WriteReg(R5, 0x00000000)
T9368 000:664.365 - 0.012ms returns 0
T9368 000:664.375 JLINK_WriteReg(R6, 0x00000000)
T9368 000:664.383 - 0.012ms returns 0
T9368 000:664.392 JLINK_WriteReg(R7, 0x00000000)
T9368 000:664.401 - 0.012ms returns 0
T9368 000:664.410 JLINK_WriteReg(R8, 0x00000000)
T9368 000:664.419 - 0.012ms returns 0
T9368 000:664.428 JLINK_WriteReg(R9, 0x20000198)
T9368 000:664.437 - 0.012ms returns 0
T9368 000:664.446 JLINK_WriteReg(R10, 0x00000000)
T9368 000:664.455 - 0.012ms returns 0
T9368 000:664.464 JLINK_WriteReg(R11, 0x00000000)
T9368 000:664.472 - 0.012ms returns 0
T9368 000:664.486 JLINK_WriteReg(R12, 0x00000000)
T9368 000:664.498 - 0.016ms returns 0
T9368 000:664.508 JLINK_WriteReg(R13 (SP), 0x20001000)
T9368 000:664.517 - 0.013ms returns 0
T9368 000:664.527 JLINK_WriteReg(R14, 0x20000001)
T9368 000:664.535 - 0.012ms returns 0
T9368 000:664.544 JLINK_WriteReg(R15 (PC), 0x20000020)
T9368 000:664.553 - 0.012ms returns 0
T9368 000:664.562 JLINK_WriteReg(XPSR, 0x01000000)
T9368 000:664.571 - 0.012ms returns 0
T9368 000:664.581 JLINK_WriteReg(MSP, 0x20001000)
T9368 000:664.589 - 0.012ms returns 0
T9368 000:664.599 JLINK_WriteReg(PSP, 0x20001000)
T9368 000:664.608 - 0.012ms returns 0
T9368 000:664.617 JLINK_WriteReg(CFBP, 0x00000000)
T9368 000:664.626 - 0.012ms returns 0
T9368 000:664.635 JLINK_SetBPEx(Addr = 0x20000000, Type = 0xFFFFFFF2)
T9368 000:664.645 - 0.013ms returns 0x00000006
T9368 000:664.654 JLINK_Go()
T9368 000:664.669   CPU_ReadMem(4 bytes @ 0xE0001000)
T9368 000:665.182   CPU_WriteMem(4 bytes @ 0xE0001000)
T9368 000:668.032 - 3.394ms
T9368 000:668.062 JLINK_IsHalted()
T9368 000:670.456   CPU_ReadMem(2 bytes @ 0x20000000)
T9368 000:671.072 - 3.022ms returns TRUE
T9368 000:671.096 JLINK_ReadReg(R15 (PC))
T9368 000:671.109 - 0.017ms returns 0x20000000
T9368 000:671.119 JLINK_ClrBPEx(BPHandle = 0x00000006)
T9368 000:671.129 - 0.014ms returns 0x00
T9368 000:671.139 JLINK_ReadReg(R0)
T9368 000:671.148 - 0.012ms returns 0x00000001
T9368 000:671.159 JLINK_HasError()
T9368 000:671.169 JLINK_WriteReg(R0, 0x00000400)
T9368 000:671.179 - 0.014ms returns 0
T9368 000:671.189 JLINK_WriteReg(R1, 0x00000200)
T9368 000:671.197 - 0.012ms returns 0
T9368 000:671.207 JLINK_WriteReg(R2, 0x000000FF)
T9368 000:671.215 - 0.012ms returns 0
T9368 000:671.225 JLINK_WriteReg(R3, 0x00000000)
T9368 000:671.234 - 0.016ms returns 0
T9368 000:671.251 JLINK_WriteReg(R4, 0x00000000)
T9368 000:671.261 - 0.014ms returns 0
T9368 000:671.271 JLINK_WriteReg(R5, 0x00000000)
T9368 000:671.280 - 0.012ms returns 0
T9368 000:671.289 JLINK_WriteReg(R6, 0x00000000)
T9368 000:671.297 - 0.012ms returns 0
T9368 000:671.307 JLINK_WriteReg(R7, 0x00000000)
T9368 000:671.315 - 0.012ms returns 0
T9368 000:671.325 JLINK_WriteReg(R8, 0x00000000)
T9368 000:671.333 - 0.012ms returns 0
T9368 000:671.343 JLINK_WriteReg(R9, 0x20000198)
T9368 000:671.351 - 0.012ms returns 0
T9368 000:671.361 JLINK_WriteReg(R10, 0x00000000)
T9368 000:671.369 - 0.012ms returns 0
T9368 000:671.379 JLINK_WriteReg(R11, 0x00000000)
T9368 000:671.387 - 0.012ms returns 0
T9368 000:671.397 JLINK_WriteReg(R12, 0x00000000)
T9368 000:671.405 - 0.012ms returns 0
T9368 000:671.415 JLINK_WriteReg(R13 (SP), 0x20001000)
T9368 000:671.424 - 0.012ms returns 0
T9368 000:671.433 JLINK_WriteReg(R14, 0x20000001)
T9368 000:671.441 - 0.012ms returns 0
T9368 000:671.451 JLINK_WriteReg(R15 (PC), 0x200000B0)
T9368 000:671.459 - 0.012ms returns 0
T9368 000:671.469 JLINK_WriteReg(XPSR, 0x01000000)
T9368 000:671.477 - 0.012ms returns 0
T9368 000:671.487 JLINK_WriteReg(MSP, 0x20001000)
T9368 000:671.495 - 0.012ms returns 0
T9368 000:671.505 JLINK_WriteReg(PSP, 0x20001000)
T9368 000:671.513 - 0.012ms returns 0
T9368 000:671.523 JLINK_WriteReg(CFBP, 0x00000000)
T9368 000:671.531 - 0.012ms returns 0
T9368 000:671.541 JLINK_SetBPEx(Addr = 0x20000000, Type = 0xFFFFFFF2)
T9368 000:671.550 - 0.013ms returns 0x00000007
T9368 000:671.560 JLINK_Go()
T9368 000:671.575   CPU_ReadMem(4 bytes @ 0xE0001000)
T9368 000:672.164   CPU_WriteMem(4 bytes @ 0xE0001000)
T9368 000:675.350 - 3.808ms
T9368 000:675.379 JLINK_IsHalted()
T9368 000:677.883 - 2.521ms returns FALSE
T9368 000:677.911 JLINK_HasError()
T9368 000:681.118 JLINK_IsHalted()
T9368 000:683.495   CPU_ReadMem(2 bytes @ 0x20000000)
T9368 000:684.109 - 3.005ms returns TRUE
T9368 000:684.217 JLINK_ReadReg(R15 (PC))
T9368 000:684.240 - 0.028ms returns 0x20000000
T9368 000:684.252 JLINK_ClrBPEx(BPHandle = 0x00000007)
T9368 000:684.261 - 0.013ms returns 0x00
T9368 000:684.272 JLINK_ReadReg(R0)
T9368 000:684.281 - 0.013ms returns 0x00000000
T9368 000:684.759 JLINK_HasError()
T9368 000:684.780 JLINK_WriteReg(R0, 0x00000001)
T9368 000:684.791 - 0.015ms returns 0
T9368 000:684.801 JLINK_WriteReg(R1, 0x00000200)
T9368 000:684.810 - 0.013ms returns 0
T9368 000:684.820 JLINK_WriteReg(R2, 0x000000FF)
T9368 000:684.829 - 0.012ms returns 0
T9368 000:684.838 JLINK_WriteReg(R3, 0x00000000)
T9368 000:684.847 - 0.012ms returns 0
T9368 000:684.857 JLINK_WriteReg(R4, 0x00000000)
T9368 000:684.865 - 0.012ms returns 0
T9368 000:684.875 JLINK_WriteReg(R5, 0x00000000)
T9368 000:684.883 - 0.012ms returns 0
T9368 000:684.893 JLINK_WriteReg(R6, 0x00000000)
T9368 000:684.901 - 0.012ms returns 0
T9368 000:684.911 JLINK_WriteReg(R7, 0x00000000)
T9368 000:684.920 - 0.012ms returns 0
T9368 000:684.930 JLINK_WriteReg(R8, 0x00000000)
T9368 000:684.938 - 0.012ms returns 0
T9368 000:684.948 JLINK_WriteReg(R9, 0x20000198)
T9368 000:684.956 - 0.012ms returns 0
T9368 000:684.966 JLINK_WriteReg(R10, 0x00000000)
T9368 000:684.974 - 0.012ms returns 0
T9368 000:684.984 JLINK_WriteReg(R11, 0x00000000)
T9368 000:684.993 - 0.012ms returns 0
T9368 000:685.002 JLINK_WriteReg(R12, 0x00000000)
T9368 000:685.011 - 0.012ms returns 0
T9368 000:685.020 JLINK_WriteReg(R13 (SP), 0x20001000)
T9368 000:685.030 - 0.013ms returns 0
T9368 000:685.039 JLINK_WriteReg(R14, 0x20000001)
T9368 000:685.048 - 0.013ms returns 0
T9368 000:685.058 JLINK_WriteReg(R15 (PC), 0x20000056)
T9368 000:685.067 - 0.012ms returns 0
T9368 000:685.077 JLINK_WriteReg(XPSR, 0x01000000)
T9368 000:685.085 - 0.012ms returns 0
T9368 000:685.095 JLINK_WriteReg(MSP, 0x20001000)
T9368 000:685.103 - 0.012ms returns 0
T9368 000:685.113 JLINK_WriteReg(PSP, 0x20001000)
T9368 000:685.125 - 0.016ms returns 0
T9368 000:685.136 JLINK_WriteReg(CFBP, 0x00000000)
T9368 000:685.144 - 0.013ms returns 0
T9368 000:685.154 JLINK_SetBPEx(Addr = 0x20000000, Type = 0xFFFFFFF2)
T9368 000:685.164 - 0.013ms returns 0x00000008
T9368 000:685.174 JLINK_Go()
T9368 000:685.190   CPU_ReadMem(4 bytes @ 0xE0001000)
T9368 000:685.862   CPU_WriteMem(4 bytes @ 0xE0001000)
T9368 000:688.915 - 3.765ms
T9368 000:688.951 JLINK_IsHalted()
T9368 000:691.479   CPU_ReadMem(2 bytes @ 0x20000000)
T9368 000:692.061 - 3.124ms returns TRUE
T9368 000:692.085 JLINK_ReadReg(R15 (PC))
T9368 000:692.098 - 0.017ms returns 0x20000000
T9368 000:692.109 JLINK_ClrBPEx(BPHandle = 0x00000008)
T9368 000:692.117 - 0.012ms returns 0x00
T9368 000:692.127 JLINK_ReadReg(R0)
T9368 000:692.136 - 0.012ms returns 0x00000000
T9368 000:754.818 JLINK_WriteMem(0x20000000, 0x19C Bytes, ...)
T9368 000:754.839   Data:  00 BE 0A E0 0D 78 2D 06 68 40 08 24 40 00 00 D3 ...
T9368 000:754.864   CPU_WriteMem(412 bytes @ 0x20000000)
T9368 000:756.975 - 2.173ms returns 0x19C
T9368 000:757.034 JLINK_HasError()
T9368 000:757.048 JLINK_WriteReg(R0, 0x00000000)
T9368 000:757.060 - 0.016ms returns 0
T9368 000:757.070 JLINK_WriteReg(R1, 0x00B71B00)
T9368 000:757.078 - 0.012ms returns 0
T9368 000:757.088 JLINK_WriteReg(R2, 0x00000002)
T9368 000:757.096 - 0.012ms returns 0
T9368 000:757.106 JLINK_WriteReg(R3, 0x00000000)
T9368 000:757.114 - 0.012ms returns 0
T9368 000:757.124 JLINK_WriteReg(R4, 0x00000000)
T9368 000:757.133 - 0.012ms returns 0
T9368 000:757.142 JLINK_WriteReg(R5, 0x00000000)
T9368 000:757.151 - 0.012ms returns 0
T9368 000:757.160 JLINK_WriteReg(R6, 0x00000000)
T9368 000:757.169 - 0.012ms returns 0
T9368 000:757.178 JLINK_WriteReg(R7, 0x00000000)
T9368 000:757.186 - 0.012ms returns 0
T9368 000:757.196 JLINK_WriteReg(R8, 0x00000000)
T9368 000:757.204 - 0.012ms returns 0
T9368 000:757.214 JLINK_WriteReg(R9, 0x20000198)
T9368 000:757.222 - 0.012ms returns 0
T9368 000:757.232 JLINK_WriteReg(R10, 0x00000000)
T9368 000:757.240 - 0.012ms returns 0
T9368 000:757.250 JLINK_WriteReg(R11, 0x00000000)
T9368 000:757.258 - 0.012ms returns 0
T9368 000:757.267 JLINK_WriteReg(R12, 0x00000000)
T9368 000:757.276 - 0.012ms returns 0
T9368 000:757.285 JLINK_WriteReg(R13 (SP), 0x20001000)
T9368 000:757.294 - 0.013ms returns 0
T9368 000:757.304 JLINK_WriteReg(R14, 0x20000001)
T9368 000:757.360 - 0.067ms returns 0
T9368 000:757.383 JLINK_WriteReg(R15 (PC), 0x20000040)
T9368 000:757.398 - 0.018ms returns 0
T9368 000:757.408 JLINK_WriteReg(XPSR, 0x01000000)
T9368 000:757.417 - 0.012ms returns 0
T9368 000:757.426 JLINK_WriteReg(MSP, 0x20001000)
T9368 000:757.435 - 0.012ms returns 0
T9368 000:757.444 JLINK_WriteReg(PSP, 0x20001000)
T9368 000:757.453 - 0.012ms returns 0
T9368 000:757.462 JLINK_WriteReg(CFBP, 0x00000000)
T9368 000:757.471 - 0.012ms returns 0
T9368 000:757.480 JLINK_SetBPEx(Addr = 0x20000000, Type = 0xFFFFFFF2)
T9368 000:757.494   CPU_ReadMem(4 bytes @ 0x20000000)
T9368 000:758.097   CPU_WriteMem(4 bytes @ 0x20000000)
T9368 000:758.664   CPU_ReadMem(4 bytes @ 0x20000000)
T9368 000:759.271   CPU_WriteMem(4 bytes @ 0x20000000)
T9368 000:759.950   CPU_ReadMem(2 bytes @ 0x20000000)
T9368 000:760.549 - 3.082ms returns 0x00000009
T9368 000:760.583 JLINK_Go()
T9368 000:760.598   CPU_WriteMem(2 bytes @ 0x20000000)
T9368 000:761.164   CPU_ReadMem(4 bytes @ 0xE0001000)
T9368 000:761.769   CPU_WriteMem(4 bytes @ 0xE0001000)
T9368 000:764.738 - 4.168ms
T9368 000:764.768 JLINK_IsHalted()
T9368 000:767.289   CPU_ReadMem(2 bytes @ 0x20000000)
T9368 000:767.933 - 3.179ms returns TRUE
T9368 000:767.964 JLINK_ReadReg(R15 (PC))
T9368 000:767.978 - 0.018ms returns 0x20000000
T9368 000:767.991 JLINK_ClrBPEx(BPHandle = 0x00000009)
T9368 000:768.000 - 0.013ms returns 0x00
T9368 000:768.012 JLINK_ReadReg(R0)
T9368 000:768.021 - 0.013ms returns 0x00000000
T9368 000:768.463 JLINK_WriteMem(0x2000019C, 0x200 Bytes, ...)
T9368 000:768.479   Data:  68 06 00 20 69 01 00 00 77 01 00 00 79 01 00 00 ...
T9368 000:768.499   CPU_WriteMem(512 bytes @ 0x2000019C)
T9368 000:770.837 - 2.388ms returns 0x200
T9368 000:770.861 JLINK_HasError()
T9368 000:770.872 JLINK_WriteReg(R0, 0x00000000)
T9368 000:770.884 - 0.016ms returns 0
T9368 000:770.894 JLINK_WriteReg(R1, 0x00000200)
T9368 000:770.903 - 0.012ms returns 0
T9368 000:770.913 JLINK_WriteReg(R2, 0x2000019C)
T9368 000:770.921 - 0.012ms returns 0
T9368 000:770.931 JLINK_WriteReg(R3, 0x00000000)
T9368 000:770.939 - 0.012ms returns 0
T9368 000:770.949 JLINK_WriteReg(R4, 0x00000000)
T9368 000:770.957 - 0.012ms returns 0
T9368 000:770.967 JLINK_WriteReg(R5, 0x00000000)
T9368 000:770.975 - 0.012ms returns 0
T9368 000:770.985 JLINK_WriteReg(R6, 0x00000000)
T9368 000:770.994 - 0.012ms returns 0
T9368 000:771.003 JLINK_WriteReg(R7, 0x00000000)
T9368 000:771.012 - 0.012ms returns 0
T9368 000:771.022 JLINK_WriteReg(R8, 0x00000000)
T9368 000:771.030 - 0.012ms returns 0
T9368 000:771.040 JLINK_WriteReg(R9, 0x20000198)
T9368 000:771.048 - 0.012ms returns 0
T9368 000:771.058 JLINK_WriteReg(R10, 0x00000000)
T9368 000:771.067 - 0.012ms returns 0
T9368 000:771.076 JLINK_WriteReg(R11, 0x00000000)
T9368 000:771.084 - 0.012ms returns 0
T9368 000:771.094 JLINK_WriteReg(R12, 0x00000000)
T9368 000:771.103 - 0.012ms returns 0
T9368 000:771.112 JLINK_WriteReg(R13 (SP), 0x20001000)
T9368 000:771.121 - 0.013ms returns 0
T9368 000:771.131 JLINK_WriteReg(R14, 0x20000001)
T9368 000:771.139 - 0.012ms returns 0
T9368 000:771.149 JLINK_WriteReg(R15 (PC), 0x200000FE)
T9368 000:771.157 - 0.012ms returns 0
T9368 000:771.167 JLINK_WriteReg(XPSR, 0x01000000)
T9368 000:771.176 - 0.012ms returns 0
T9368 000:771.185 JLINK_WriteReg(MSP, 0x20001000)
T9368 000:771.193 - 0.012ms returns 0
T9368 000:771.203 JLINK_WriteReg(PSP, 0x20001000)
T9368 000:771.212 - 0.012ms returns 0
T9368 000:771.222 JLINK_WriteReg(CFBP, 0x00000000)
T9368 000:771.230 - 0.012ms returns 0
T9368 000:771.240 JLINK_SetBPEx(Addr = 0x20000000, Type = 0xFFFFFFF2)
T9368 000:771.250 - 0.013ms returns 0x0000000A
T9368 000:771.259 JLINK_Go()
T9368 000:771.273   CPU_ReadMem(4 bytes @ 0xE0001000)
T9368 000:772.036   CPU_WriteMem(4 bytes @ 0xE0001000)
T9368 000:774.831 - 3.586ms
T9368 000:774.855 JLINK_IsHalted()
T9368 000:775.581 - 0.740ms returns FALSE
T9368 000:775.604 JLINK_HasError()
T9368 000:779.363 JLINK_IsHalted()
T9368 000:780.110 - 0.761ms returns FALSE
T9368 000:780.139 JLINK_HasError()
T9368 000:781.418 JLINK_IsHalted()
T9368 000:782.119 - 0.714ms returns FALSE
T9368 000:782.141 JLINK_HasError()
T9368 000:783.882 JLINK_IsHalted()
T9368 000:784.580 - 0.712ms returns FALSE
T9368 000:784.604 JLINK_HasError()
T9368 000:786.152 JLINK_IsHalted()
T9368 000:786.907 - 0.768ms returns FALSE
T9368 000:786.930 JLINK_HasError()
T9368 000:788.263 JLINK_IsHalted()
T9368 000:789.069 - 0.830ms returns FALSE
T9368 000:789.109 JLINK_HasError()
T9368 000:790.757 JLINK_IsHalted()
T9368 000:791.407 - 0.664ms returns FALSE
T9368 000:791.432 JLINK_HasError()
T9368 000:792.847 JLINK_IsHalted()
T9368 000:793.614 - 0.780ms returns FALSE
T9368 000:793.637 JLINK_HasError()
T9368 000:794.864 JLINK_IsHalted()
T9368 000:795.619 - 0.769ms returns FALSE
T9368 000:795.642 JLINK_HasError()
T9368 000:797.589 JLINK_IsHalted()
T9368 000:798.410 - 0.835ms returns FALSE
T9368 000:798.434 JLINK_HasError()
T9368 000:799.981 JLINK_IsHalted()
T9368 000:800.612 - 0.645ms returns FALSE
T9368 000:800.636 JLINK_HasError()
T9368 000:802.069 JLINK_IsHalted()
T9368 000:802.657 - 0.601ms returns FALSE
T9368 000:802.680 JLINK_HasError()
T9368 000:803.918 JLINK_IsHalted()
T9368 000:804.664 - 0.758ms returns FALSE
T9368 000:804.686 JLINK_HasError()
T9368 000:805.967 JLINK_IsHalted()
T9368 000:806.643 - 0.690ms returns FALSE
T9368 000:806.666 JLINK_HasError()
T9368 000:808.115 JLINK_IsHalted()
T9368 000:810.627   CPU_ReadMem(2 bytes @ 0x20000000)
T9368 000:811.163 - 3.061ms returns TRUE
T9368 000:811.186 JLINK_ReadReg(R15 (PC))
T9368 000:811.199 - 0.016ms returns 0x20000000
T9368 000:811.209 JLINK_ClrBPEx(BPHandle = 0x0000000A)
T9368 000:811.218 - 0.013ms returns 0x00
T9368 000:811.228 JLINK_ReadReg(R0)
T9368 000:811.237 - 0.012ms returns 0x00000000
T9368 000:811.900 JLINK_WriteMem(0x2000019C, 0x200 Bytes, ...)
T9368 000:811.916   Data:  70 47 10 B5 04 46 C0 46 C0 46 20 46 FF F7 A5 FF ...
T9368 000:811.934   CPU_WriteMem(512 bytes @ 0x2000019C)
T9368 000:814.295 - 2.412ms returns 0x200
T9368 000:814.327 JLINK_HasError()
T9368 000:814.343 JLINK_WriteReg(R0, 0x00000200)
T9368 000:814.355 - 0.016ms returns 0
T9368 000:814.365 JLINK_WriteReg(R1, 0x00000200)
T9368 000:814.374 - 0.013ms returns 0
T9368 000:814.383 JLINK_WriteReg(R2, 0x2000019C)
T9368 000:814.392 - 0.012ms returns 0
T9368 000:814.402 JLINK_WriteReg(R3, 0x00000000)
T9368 000:814.410 - 0.012ms returns 0
T9368 000:814.420 JLINK_WriteReg(R4, 0x00000000)
T9368 000:814.429 - 0.013ms returns 0
T9368 000:814.438 JLINK_WriteReg(R5, 0x00000000)
T9368 000:814.447 - 0.012ms returns 0
T9368 000:814.457 JLINK_WriteReg(R6, 0x00000000)
T9368 000:814.465 - 0.012ms returns 0
T9368 000:814.475 JLINK_WriteReg(R7, 0x00000000)
T9368 000:814.483 - 0.012ms returns 0
T9368 000:814.492 JLINK_WriteReg(R8, 0x00000000)
T9368 000:814.501 - 0.012ms returns 0
T9368 000:814.511 JLINK_WriteReg(R9, 0x20000198)
T9368 000:814.519 - 0.012ms returns 0
T9368 000:814.528 JLINK_WriteReg(R10, 0x00000000)
T9368 000:814.537 - 0.012ms returns 0
T9368 000:814.546 JLINK_WriteReg(R11, 0x00000000)
T9368 000:814.555 - 0.012ms returns 0
T9368 000:814.564 JLINK_WriteReg(R12, 0x00000000)
T9368 000:814.573 - 0.012ms returns 0
T9368 000:814.582 JLINK_WriteReg(R13 (SP), 0x20001000)
T9368 000:814.591 - 0.013ms returns 0
T9368 000:814.601 JLINK_WriteReg(R14, 0x20000001)
T9368 000:814.609 - 0.012ms returns 0
T9368 000:814.619 JLINK_WriteReg(R15 (PC), 0x200000FE)
T9368 000:814.627 - 0.012ms returns 0
T9368 000:814.637 JLINK_WriteReg(XPSR, 0x01000000)
T9368 000:814.645 - 0.012ms returns 0
T9368 000:814.655 JLINK_WriteReg(MSP, 0x20001000)
T9368 000:814.666 - 0.014ms returns 0
T9368 000:814.676 JLINK_WriteReg(PSP, 0x20001000)
T9368 000:814.685 - 0.012ms returns 0
T9368 000:814.694 JLINK_WriteReg(CFBP, 0x00000000)
T9368 000:814.703 - 0.012ms returns 0
T9368 000:814.712 JLINK_SetBPEx(Addr = 0x20000000, Type = 0xFFFFFFF2)
T9368 000:814.722 - 0.013ms returns 0x0000000B
T9368 000:814.732 JLINK_Go()
T9368 000:814.746   CPU_ReadMem(4 bytes @ 0xE0001000)
T9368 000:815.369   CPU_WriteMem(4 bytes @ 0xE0001000)
T9368 000:818.292 - 3.574ms
T9368 000:818.396 JLINK_IsHalted()
T9368 000:819.005 - 0.630ms returns FALSE
T9368 000:819.035 JLINK_HasError()
T9368 000:820.936 JLINK_IsHalted()
T9368 000:821.735 - 0.814ms returns FALSE
T9368 000:821.759 JLINK_HasError()
T9368 000:823.006 JLINK_IsHalted()
T9368 000:823.757 - 0.764ms returns FALSE
T9368 000:823.780 JLINK_HasError()
T9368 000:825.031 JLINK_IsHalted()
T9368 000:825.761 - 0.744ms returns FALSE
T9368 000:825.784 JLINK_HasError()
T9368 000:827.557 JLINK_IsHalted()
T9368 000:828.204 - 0.666ms returns FALSE
T9368 000:828.233 JLINK_HasError()
T9368 000:829.706 JLINK_IsHalted()
T9368 000:830.221 - 0.528ms returns FALSE
T9368 000:830.243 JLINK_HasError()
T9368 000:831.668 JLINK_IsHalted()
T9368 000:832.342 - 0.685ms returns FALSE
T9368 000:832.361 JLINK_HasError()
T9368 000:833.888 JLINK_IsHalted()
T9368 000:834.507 - 0.633ms returns FALSE
T9368 000:834.531 JLINK_HasError()
T9368 000:837.325 JLINK_IsHalted()
T9368 000:838.069 - 0.758ms returns FALSE
T9368 000:838.092 JLINK_HasError()
T9368 000:839.641 JLINK_IsHalted()
T9368 000:840.373 - 0.746ms returns FALSE
T9368 000:840.397 JLINK_HasError()
T9368 000:841.930 JLINK_IsHalted()
T9368 000:842.535 - 0.617ms returns FALSE
T9368 000:842.557 JLINK_HasError()
T9368 000:843.973 JLINK_IsHalted()
T9368 000:844.751 - 0.792ms returns FALSE
T9368 000:844.775 JLINK_HasError()
T9368 000:846.218 JLINK_IsHalted()
T9368 000:847.058 - 0.853ms returns FALSE
T9368 000:847.081 JLINK_HasError()
T9368 000:848.241 JLINK_IsHalted()
T9368 000:848.794 - 0.566ms returns FALSE
T9368 000:848.816 JLINK_HasError()
T9368 000:850.725 JLINK_IsHalted()
T9368 000:853.234   CPU_ReadMem(2 bytes @ 0x20000000)
T9368 000:853.802 - 3.090ms returns TRUE
T9368 000:853.825 JLINK_ReadReg(R15 (PC))
T9368 000:853.837 - 0.016ms returns 0x20000000
T9368 000:853.847 JLINK_ClrBPEx(BPHandle = 0x0000000B)
T9368 000:853.856 - 0.013ms returns 0x00
T9368 000:853.866 JLINK_ReadReg(R0)
T9368 000:853.875 - 0.012ms returns 0x00000000
T9368 000:854.999 JLINK_WriteMem(0x2000019C, 0x200 Bytes, ...)
T9368 000:855.017   Data:  C6 68 3E 61 06 69 BE 61 46 69 FE 61 F0 BD 00 00 ...
T9368 000:855.036   CPU_WriteMem(512 bytes @ 0x2000019C)
T9368 000:857.378 - 2.394ms returns 0x200
T9368 000:857.404 JLINK_HasError()
T9368 000:857.415 JLINK_WriteReg(R0, 0x00000400)
T9368 000:857.427 - 0.016ms returns 0
T9368 000:857.437 JLINK_WriteReg(R1, 0x00000188)
T9368 000:857.446 - 0.012ms returns 0
T9368 000:857.456 JLINK_WriteReg(R2, 0x2000019C)
T9368 000:857.465 - 0.013ms returns 0
T9368 000:857.475 JLINK_WriteReg(R3, 0x00000000)
T9368 000:857.483 - 0.012ms returns 0
T9368 000:857.492 JLINK_WriteReg(R4, 0x00000000)
T9368 000:857.501 - 0.012ms returns 0
T9368 000:857.510 JLINK_WriteReg(R5, 0x00000000)
T9368 000:857.519 - 0.012ms returns 0
T9368 000:857.528 JLINK_WriteReg(R6, 0x00000000)
T9368 000:857.537 - 0.012ms returns 0
T9368 000:857.546 JLINK_WriteReg(R7, 0x00000000)
T9368 000:857.555 - 0.012ms returns 0
T9368 000:857.564 JLINK_WriteReg(R8, 0x00000000)
T9368 000:857.573 - 0.012ms returns 0
T9368 000:857.582 JLINK_WriteReg(R9, 0x20000198)
T9368 000:857.590 - 0.012ms returns 0
T9368 000:857.600 JLINK_WriteReg(R10, 0x00000000)
T9368 000:857.609 - 0.012ms returns 0
T9368 000:857.618 JLINK_WriteReg(R11, 0x00000000)
T9368 000:857.626 - 0.012ms returns 0
T9368 000:857.636 JLINK_WriteReg(R12, 0x00000000)
T9368 000:857.644 - 0.012ms returns 0
T9368 000:857.654 JLINK_WriteReg(R13 (SP), 0x20001000)
T9368 000:857.663 - 0.013ms returns 0
T9368 000:857.672 JLINK_WriteReg(R14, 0x20000001)
T9368 000:857.681 - 0.012ms returns 0
T9368 000:857.690 JLINK_WriteReg(R15 (PC), 0x200000FE)
T9368 000:857.699 - 0.012ms returns 0
T9368 000:857.708 JLINK_WriteReg(XPSR, 0x01000000)
T9368 000:857.717 - 0.012ms returns 0
T9368 000:857.726 JLINK_WriteReg(MSP, 0x20001000)
T9368 000:857.734 - 0.012ms returns 0
T9368 000:857.744 JLINK_WriteReg(PSP, 0x20001000)
T9368 000:857.752 - 0.018ms returns 0
T9368 000:857.772 JLINK_WriteReg(CFBP, 0x00000000)
T9368 000:857.781 - 0.012ms returns 0
T9368 000:857.790 JLINK_SetBPEx(Addr = 0x20000000, Type = 0xFFFFFFF2)
T9368 000:857.800 - 0.013ms returns 0x0000000C
T9368 000:857.810 JLINK_Go()
T9368 000:857.824   CPU_ReadMem(4 bytes @ 0xE0001000)
T9368 000:858.400   CPU_WriteMem(4 bytes @ 0xE0001000)
T9368 000:861.455 - 3.659ms
T9368 000:861.478 JLINK_IsHalted()
T9368 000:862.222 - 0.757ms returns FALSE
T9368 000:862.245 JLINK_HasError()
T9368 000:864.790 JLINK_IsHalted()
T9368 000:865.456 - 0.679ms returns FALSE
T9368 000:865.479 JLINK_HasError()
T9368 000:867.322 JLINK_IsHalted()
T9368 000:867.978 - 0.669ms returns FALSE
T9368 000:868.001 JLINK_HasError()
T9368 000:869.200 JLINK_IsHalted()
T9368 000:869.992 - 0.806ms returns FALSE
T9368 000:870.015 JLINK_HasError()
T9368 000:871.293 JLINK_IsHalted()
T9368 000:871.949 - 0.670ms returns FALSE
T9368 000:871.972 JLINK_HasError()
T9368 000:873.376 JLINK_IsHalted()
T9368 000:873.921 - 0.559ms returns FALSE
T9368 000:873.945 JLINK_HasError()
T9368 000:875.415 JLINK_IsHalted()
T9368 000:875.954 - 0.552ms returns FALSE
T9368 000:875.976 JLINK_HasError()
T9368 000:877.214 JLINK_IsHalted()
T9368 000:877.949 - 0.747ms returns FALSE
T9368 000:877.972 JLINK_HasError()
T9368 000:879.108 JLINK_IsHalted()
T9368 000:879.652 - 0.558ms returns FALSE
T9368 000:879.675 JLINK_HasError()
T9368 000:881.204 JLINK_IsHalted()
T9368 000:881.692 - 0.500ms returns FALSE
T9368 000:881.714 JLINK_HasError()
T9368 000:882.877 JLINK_IsHalted()
T9368 000:883.488 - 0.624ms returns FALSE
T9368 000:883.510 JLINK_HasError()
T9368 000:884.932 JLINK_IsHalted()
T9368 000:885.702 - 0.783ms returns FALSE
T9368 000:885.726 JLINK_HasError()
T9368 000:887.472 JLINK_IsHalted()
T9368 000:889.848   CPU_ReadMem(2 bytes @ 0x20000000)
T9368 000:890.337 - 2.874ms returns TRUE
T9368 000:890.355 JLINK_ReadReg(R15 (PC))
T9368 000:890.367 - 0.015ms returns 0x20000000
T9368 000:890.377 JLINK_ClrBPEx(BPHandle = 0x0000000C)
T9368 000:890.386 - 0.013ms returns 0x00
T9368 000:890.396 JLINK_ReadReg(R0)
T9368 000:890.404 - 0.012ms returns 0x00000000
T9368 000:890.415 JLINK_HasError()
T9368 000:890.426 JLINK_WriteReg(R0, 0x00000002)
T9368 000:890.435 - 0.013ms returns 0
T9368 000:890.445 JLINK_WriteReg(R1, 0x00000188)
T9368 000:890.453 - 0.012ms returns 0
T9368 000:890.463 JLINK_WriteReg(R2, 0x2000019C)
T9368 000:890.471 - 0.012ms returns 0
T9368 000:890.481 JLINK_WriteReg(R3, 0x00000000)
T9368 000:890.489 - 0.012ms returns 0
T9368 000:890.499 JLINK_WriteReg(R4, 0x00000000)
T9368 000:890.507 - 0.012ms returns 0
T9368 000:890.516 JLINK_WriteReg(R5, 0x00000000)
T9368 000:890.525 - 0.012ms returns 0
T9368 000:890.534 JLINK_WriteReg(R6, 0x00000000)
T9368 000:890.543 - 0.012ms returns 0
T9368 000:890.552 JLINK_WriteReg(R7, 0x00000000)
T9368 000:890.561 - 0.012ms returns 0
T9368 000:890.570 JLINK_WriteReg(R8, 0x00000000)
T9368 000:890.579 - 0.012ms returns 0
T9368 000:890.588 JLINK_WriteReg(R9, 0x20000198)
T9368 000:890.597 - 0.012ms returns 0
T9368 000:890.606 JLINK_WriteReg(R10, 0x00000000)
T9368 000:890.615 - 0.012ms returns 0
T9368 000:890.624 JLINK_WriteReg(R11, 0x00000000)
T9368 000:890.633 - 0.012ms returns 0
T9368 000:890.642 JLINK_WriteReg(R12, 0x00000000)
T9368 000:890.651 - 0.012ms returns 0
T9368 000:890.660 JLINK_WriteReg(R13 (SP), 0x20001000)
T9368 000:890.669 - 0.012ms returns 0
T9368 000:890.678 JLINK_WriteReg(R14, 0x20000001)
T9368 000:890.687 - 0.012ms returns 0
T9368 000:890.696 JLINK_WriteReg(R15 (PC), 0x20000056)
T9368 000:890.705 - 0.012ms returns 0
T9368 000:890.714 JLINK_WriteReg(XPSR, 0x01000000)
T9368 000:890.723 - 0.012ms returns 0
T9368 000:890.732 JLINK_WriteReg(MSP, 0x20001000)
T9368 000:890.740 - 0.012ms returns 0
T9368 000:890.750 JLINK_WriteReg(PSP, 0x20001000)
T9368 000:890.758 - 0.012ms returns 0
T9368 000:890.768 JLINK_WriteReg(CFBP, 0x00000000)
T9368 000:890.777 - 0.012ms returns 0
T9368 000:890.786 JLINK_SetBPEx(Addr = 0x20000000, Type = 0xFFFFFFF2)
T9368 000:890.801 - 0.021ms returns 0x0000000D
T9368 000:890.814 JLINK_Go()
T9368 000:890.827   CPU_ReadMem(4 bytes @ 0xE0001000)
T9368 000:891.411   CPU_WriteMem(4 bytes @ 0xE0001000)
T9368 000:894.363 - 3.564ms
T9368 000:894.468 JLINK_IsHalted()
T9368 000:896.965   CPU_ReadMem(2 bytes @ 0x20000000)
T9368 000:897.565 - 3.110ms returns TRUE
T9368 000:897.589 JLINK_ReadReg(R15 (PC))
T9368 000:897.601 - 0.017ms returns 0x20000000
T9368 000:897.612 JLINK_ClrBPEx(BPHandle = 0x0000000D)
T9368 000:897.621 - 0.013ms returns 0x00
T9368 000:897.631 JLINK_ReadReg(R0)
T9368 000:897.640 - 0.012ms returns 0x00000000
T9368 000:959.936 JLINK_WriteMem(0x20000000, 0x19C Bytes, ...)
T9368 000:959.956   Data:  00 BE 0A E0 0D 78 2D 06 68 40 08 24 40 00 00 D3 ...
T9368 000:959.983   CPU_WriteMem(412 bytes @ 0x20000000)
T9368 000:962.113 - 2.192ms returns 0x19C
T9368 000:962.173 JLINK_HasError()
T9368 000:962.187 JLINK_WriteReg(R0, 0x00000000)
T9368 000:962.199 - 0.016ms returns 0
T9368 000:962.210 JLINK_WriteReg(R1, 0x00B71B00)
T9368 000:962.218 - 0.012ms returns 0
T9368 000:962.228 JLINK_WriteReg(R2, 0x00000003)
T9368 000:962.237 - 0.012ms returns 0
T9368 000:962.246 JLINK_WriteReg(R3, 0x00000000)
T9368 000:962.254 - 0.012ms returns 0
T9368 000:962.264 JLINK_WriteReg(R4, 0x00000000)
T9368 000:962.272 - 0.012ms returns 0
T9368 000:962.282 JLINK_WriteReg(R5, 0x00000000)
T9368 000:962.290 - 0.012ms returns 0
T9368 000:962.300 JLINK_WriteReg(R6, 0x00000000)
T9368 000:962.308 - 0.012ms returns 0
T9368 000:962.318 JLINK_WriteReg(R7, 0x00000000)
T9368 000:962.326 - 0.012ms returns 0
T9368 000:962.336 JLINK_WriteReg(R8, 0x00000000)
T9368 000:962.344 - 0.012ms returns 0
T9368 000:962.353 JLINK_WriteReg(R9, 0x20000198)
T9368 000:962.362 - 0.012ms returns 0
T9368 000:962.371 JLINK_WriteReg(R10, 0x00000000)
T9368 000:962.380 - 0.012ms returns 0
T9368 000:962.389 JLINK_WriteReg(R11, 0x00000000)
